 (000.000000)  can1  18F0010B   [8]  C0 FF F0 FF FF 5C FF FF
 (000.006533)  can0  0CFFC600   [8]  32 00 01 FF FF FF FF FF
 (000.003575)  can1  18FEBF0B   [8]  00 00 7D 7D 7D 7D FF FF
 (000.005729)  can1  0CFE6E0B   [8]  00 00 00 00 00 00 00 00
 (000.000378)  can0  0CFFC600   [8]  32 00 01 FF FF FF FF FF
 (000.001209)  can0  0CF00400   [8]  0E 7D 7D 00 00 00 0F 7D
 (000.008958)  can0  0CFFC600   [8]  32 00 01 FF FF FF FF FF
 (000.004877)  can0  18FEDF00   [8]  7D A0 28 7D 7D FF FF F0
 (000.004576)  can1  0CFE6E0B   [8]  00 00 00 00 00 00 00 00
 (000.000399)  can0  0CFFC600   [8]  32 00 01 FF FF FF FF FF
 (000.001216)  can0  0CF00400   [8]  0E 7D 7D 00 00 00 0F 7D
 (000.008863)  can0  0CFFC600   [8]  32 00 01 FF FF FF FF FF
 (000.009997)  can0  0CFFC600   [8]  32 00 01 FF FF FF FF FF
 (000.000173)  can1  0CFE6E0B   [8]  00 00 00 00 00 00 00 00
 (000.000001)  can1  18F00131   [8]  00 00 00 00 00 00 00 00
 (000.001046)  can0  0CF00400   [8]  0E 7D 7D 00 00 00 0F 7D
 (000.000083)  can1  18F0010B   [8]  00 00 00 00 00 00 00 00
 (000.000000)  can1  18FEF117   [8]  00 00 00 00 00 00 00 00
 (000.001193)  can1  18FEF128   [8]  00 00 00 00 00 00 00 00
 (000.000000)  can1  18FEF121   [8]  00 00 00 00 00 00 00 00
 (000.001178)  can1  18FEF131   [8]  00 00 00 00 00 00 00 00
 (000.000001)  can1  18E00017   [8]  00 00 00 00 00 00 00 00
 (000.001120)  can1  18E00019   [8]  00 00 00 00 00 00 00 00
 (000.000000)  can1  18E00021   [8]  00 00 00 00 00 00 00 00
 (000.001177)  can1  18E00028   [8]  00 00 00 00 00 00 00 00
 (000.000000)  can1  18E00031   [8]  00 00 00 00 00 00 00 00
 (000.001185)  can1  18FEF017   [8]  00 00 00 00 00 00 00 00
 (000.000001)  can1  18FEF021   [8]  00 00 00 00 00 00 00 00
 (000.001137)  can1  18FEF028   [8]  00 00 00 00 00 00 00 00
 (000.000001)  can1  18FEF031   [8]  00 00 00 00 00 00 00 00
 (000.001921)  can0  0CFFC600   [8]  32 00 01 FF FF FF FF FF
 (000.009320)  can1  0CFE6E0B   [8]  00 00 00 00 00 00 00 00
 (000.000368)  can0  0CFFC600   [8]  32 00 01 FF FF FF FF FF
 (000.001244)  can0  0CF00400   [8]  0E 7D 7D 00 00 00 0F 7D
 (000.008867)  can0  0CFFC600   [8]  32 00 01 FF FF FF FF FF
 (000.005653)  can1  18EEFF5C   [8]  00 00 00 00 00 00 00 00
 (000.003829)  can1  0CFE6E0B   [8]  00 00 00 00 00 00 00 00
 (000.000443)  can0  0CFFC600   [8]  32 00 01 FF FF FF FF FF
 (000.001231)  can0  0CF00400   [8]  0E 7D 7D 00 00 00 0F 7D
 (000.003052)  can1  18F0010B   [8]  C0 FF F0 FF FF 5C FF FF
 (000.010103)  can1  18FEBF0B   [8]  00 00 7D 7D 7D 7D FF FF
 (000.000774)  can0  0CFFC600   [8]  32 00 01 FF FF FF FF FF
 (000.004408)  can1  0CFE6E0B   [8]  00 00 00 00 00 00 00 00
 (000.005440)  can0  0CFFC600   [8]  32 00 01 FF FF FF FF FF
 (000.001197)  can0  0CF00400   [8]  0E 7D 7D 00 00 00 0F 7D
 (000.008897)  can0  0CFFC600   [8]  32 00 01 FF FF FF FF FF
 (000.004474)  can1  0CFE6E0B   [8]  00 00 00 00 00 00 00 00
 (000.005439)  can0  0CFFC600   [8]  32 00 01 FF FF FF FF FF
 (000.001216)  can0  0CF00400   [8]  0E 7D 7D 00 00 00 0F 7D
 (000.008841)  can0  0CFFC600   [8]  32 00 01 FF FF FF FF FF
 (000.005123)  can1  0CFE6E0B   [8]  00 00 00 00 00 00 00 00
 (000.000000)  can1  18F00131   [8]  00 00 00 00 00 00 00 00
 (000.001157)  can1  18F0010B   [8]  00 00 00 00 00 00 00 00
 (000.000000)  can1  18FEF117   [8]  00 00 00 00 00 00 00 00
 (000.001178)  can1  18FEF128   [8]  00 00 00 00 00 00 00 00
 (000.000000)  can1  18FEF121   [8]  00 00 00 00 00 00 00 00
 (000.001140)  can1  18FEF131   [8]  00 00 00 00 00 00 00 00
 (000.000000)  can1  18E00017   [8]  00 00 00 00 00 00 00 00
 (000.001210)  can1  18E00019   [8]  00 00 00 00 00 00 00 00
 (000.000001)  can1  18E00021   [8]  00 00 00 00 00 00 00 00
 (000.000288)  can0  0CFFC600   [8]  32 00 01 FF FF FF FF FF
 (000.000897)  can1  18E00028   [8]  00 00 00 00 00 00 00 00
 (000.000000)  can1  18E00031   [8]  00 00 00 00 00 00 00 00
 (000.000391)  can0  0CF00400   [8]  0E 7D 7D 00 00 00 0F 7D
 (000.000741)  can1  18FEF017   [8]  00 00 00 00 00 00 00 00
 (000.000000)  can1  18FEF021   [8]  00 00 00 00 00 00 00 00
 (000.001143)  can1  18FEF028   [8]  00 00 00 00 00 00 00 00
 (000.000000)  can1  18FEF031   [8]  00 00 00 00 00 00 00 00
 (000.006714)  can0  0CFFC600   [8]  32 00 01 FF FF FF FF FF
 (000.004497)  can1  0CFE6E0B   [8]  00 00 00 00 00 00 00 00
 (000.005429)  can0  0CFFC600   [8]  32 00 01 FF FF FF FF FF
 (000.001216)  can0  0CF00400   [8]  0E 7D 7D 00 00 00 0F 7D
 (000.008897)  can0  0CFFC600   [8]  32 00 01 FF FF FF FF FF
 (000.004496)  can1  0CFE6E0B   [8]  00 00 00 00 00 00 00 00
 (000.005284)  can1  18F0010B   [8]  C0 FF F0 FF FF 5C FF FF
 (000.000114)  can0  0CFFC600   [8]  32 00 01 FF FF FF FF FF
 (000.001254)  can0  0CF00400   [8]  0E 7D 7D 00 00 00 0F 7D
 (000.008767)  can1  18FEBF0B   [8]  00 00 7D 7D 7D 7D FF FF
 (000.004597)  can1  0CFE6E0B   [8]  00 00 00 00 00 00 00 00
 (000.000671)  can0  0CFFC600   [8]  32 00 01 FF FF FF FF FF
 (000.009741)  can0  0CFFC600   [8]  32 00 01 FF FF FF FF FF
 (000.001222)  can0  0CF00400   [8]  0E 7D 7D 00 00 00 0F 7D
 (000.008370)  can1  0CFE6E0B   [8]  00 00 00 00 00 00 00 00
 (000.000466)  can0  0CFFC600   [8]  32 00 01 FF FF FF FF FF
 (000.009952)  can0  0CFFC600   [8]  32 00 01 FF FF FF FF FF
 (000.001264)  can0  0CF00400   [8]  0E 7D 7D 00 00 00 0F 7D
 (000.004315)  can0  0CFD9200   [8]  F0 FF FF FF FF FF FF FF
 (000.004464)  can0  0CFFC600   [8]  32 00 01 FF FF FF FF FF
 (000.000149)  can1  0CFE6E0B   [8]  00 00 00 00 00 00 00 00
 (000.000001)  can1  18F00131   [8]  00 00 00 00 00 00 00 00
 (000.001144)  can1  18F0010B   [8]  00 00 00 00 00 00 00 00
 (000.000001)  can1  18FEF117   [8]  00 00 00 00 00 00 00 00
 (000.001149)  can1  18FEF128   [8]  00 00 00 00 00 00 00 00
 (000.000000)  can1  18FEF121   [8]  00 00 00 00 00 00 00 00
 (000.001165)  can1  18FEF131   [8]  00 00 00 00 00 00 00 00
 (000.000000)  can1  18E00017   [8]  00 00 00 00 00 00 00 00
 (000.001211)  can1  18E00019   [8]  00 00 00 00 00 00 00 00
 (000.000000)  can1  18E00021   [8]  00 00 00 00 00 00 00 00
 (000.001148)  can1  18E00028   [8]  00 00 00 00 00 00 00 00
 (000.000000)  can1  18E00031   [8]  00 00 00 00 00 00 00 00
 (000.001148)  can1  18FEF017   [8]  00 00 00 00 00 00 00 00
 (000.000000)  can1  18FEF021   [8]  00 00 00 00 00 00 00 00
 (000.001170)  can1  18FEF028   [8]  00 00 00 00 00 00 00 00
 (000.000000)  can1  18FEF031   [8]  00 00 00 00 00 00 00 00
 (000.001828)  can0  0CFFC600   [8]  32 00 01 FF FF FF FF FF
 (000.001236)  can0  0CF00400   [8]  0E 7D 7D 00 00 00 0F 7D
 (000.008136)  can1  0CFE6E0B   [8]  00 00 00 00 00 00 00 00
 (000.000498)  can0  0CFFC600   [8]  32 00 01 FF FF FF FF FF
 (000.009956)  can0  0CFFC600   [8]  32 00 01 FF FF FF FF FF
 (000.000000)  can0  18D42580   [8]  06 05 94 2E 98 B2 B3 33
 (000.001195)  can0  0CF00400   [8]  0E 7D 7D 00 00 00 0F 7D
 (000.008360)  can1  0CFE6E0B   [8]  00 00 00 00 00 00 00 00
 (000.000504)  can0  0CFFC600   [8]  32 00 01 FF FF FF FF FF
 (000.004981)  can0  18FEDF00   [8]  7D A0 28 7D 7D FF FF F0
 (000.000364)  can1  18F0010B   [8]  C0 FF F0 FF FF 5C FF FF
 (000.004596)  can0  0CFFC600   [8]  32 00 01 FF FF FF FF FF
 (000.001225)  can0  0CF00400   [8]  0E 7D 7D 00 00 00 0F 7D
 (000.004249)  can1  18FEBF0B   [8]  00 00 7D 7D 7D 7D FF FF
 (000.004083)  can1  0CFE6E0B   [8]  00 00 00 00 00 00 00 00
 (000.005600)  can0  0CFFC600   [8]  32 00 01 FF FF FF FF FF
 (000.009847)  can0  0CFFC600   [8]  32 00 01 FF FF FF FF FF
 (000.001196)  can0  0CF00400   [8]  0E 7D 7D 00 00 00 0F 7D
 (000.003402)  can1  0CFE6E0B   [8]  00 00 00 00 00 00 00 00
 (000.007646)  can0  0CFFC600   [8]  32 00 01 FF FF FF FF FF
 (000.008473)  can1  18EEFF5D   [8]  00 00 00 00 00 00 00 00
 (000.000236)  can0  0CFFC600   [8]  32 00 01 FF FF FF FF FF
 (000.001219)  can0  0CF00400   [8]  0E 7D 7D 00 00 00 0F 7D
 (000.003011)  can1  0CFE6E0B   [8]  00 00 00 00 00 00 00 00
 (000.000000)  can1  18F00131   [8]  00 00 00 00 00 00 00 00
 (000.001152)  can1  18F0010B   [8]  00 00 00 00 00 00 00 00
 (000.000001)  can1  18FEF117   [8]  00 00 00 00 00 00 00 00
 (000.001167)  can1  18FEF128   [8]  00 00 00 00 00 00 00 00
 (000.000001)  can1  18FEF121   [8]  00 00 00 00 00 00 00 00
 (000.001190)  can1  18FEF131   [8]  00 00 00 00 00 00 00 00
 (000.000000)  can1  18E00017   [8]  00 00 00 00 00 00 00 00
 (000.001156)  can1  18E00019   [8]  00 00 00 00 00 00 00 00
 (000.000000)  can1  18E00021   [8]  00 00 00 00 00 00 00 00
 (000.001209)  can1  18E00028   [8]  00 00 00 00 00 00 00 00
 (000.000000)  can1  18E00031   [8]  00 00 00 00 00 00 00 00
 (000.000289)  can0  0CFFC600   [8]  32 00 01 FF FF FF FF FF
 (000.000840)  can1  18FEF017   [8]  00 00 00 00 00 00 00 00
 (000.000000)  can1  18FEF021   [8]  00 00 00 00 00 00 00 00
 (000.001168)  can1  18FEF028   [8]  00 00 00 00 00 00 00 00
 (000.000000)  can1  18FEF031   [8]  00 00 00 00 00 00 00 00
 (000.002845)  can0  18FEF600   [8]  FF FE FE FF FF FF FF FF
 (000.004778)  can0  0CFFC600   [8]  32 00 01 FF FF FF FF FF
 (000.001209)  can0  0CF00400   [8]  0E 7D 7D 00 00 00 0F 7D
 (000.002373)  can1  0CFE6E0B   [8]  00 00 00 00 00 00 00 00
 (000.006520)  can0  0CFFC600   [8]  32 00 01 FF FF FF FF FF
 (000.009917)  can0  0CFFC600   [8]  32 00 01 FF FF FF FF FF
 (000.001224)  can0  0CF00400   [8]  0E 7D 7D 00 00 00 0F 7D
 (000.002349)  can1  0CFE6E0B   [8]  00 00 00 00 00 00 00 00
 (000.006401)  can1  18F0010B   [8]  C0 FF F0 FF FF 5C FF FF
 (000.000036)  can0  0CFFC600   [8]  32 00 01 FF FF FF FF FF
 (000.002495)  can0  1CEA0200   [3]  00 D3 00
 (000.000000)  can0  18EAD000   [3]  00 D3 00
 (000.000000)  can0  18EAD100   [3]  00 D3 00
 (000.007590)  can1  18FEBF0B   [8]  00 00 7D 7D 7D 7D FF FF
 (000.000001)  can0  0CFFC600   [8]  32 00 01 FF FF FF FF FF
 (000.001185)  can0  0CF00400   [8]  0E 7D 7D 00 00 00 0F 7D
 (000.002321)  can1  0CFE6E0B   [8]  00 00 00 00 00 00 00 00
 (000.006527)  can1  18ECFF0B   [8]  20 0E 00 02 FF CA FE 00
 (000.005310)  can0  0CFFC600   [8]  32 00 01 FF FF FF FF FF
 (000.008158)  can1  0CFE6E0B   [8]  00 00 00 00 00 00 00 00
 (000.001427)  can0  0CFFC600   [8]  32 00 01 FF FF FF FF FF
 (000.001231)  can0  0CF00400   [8]  0E 7D 7D 00 00 00 0F 7D
 (000.008857)  can0  0CFFC600   [8]  32 00 01 FF FF FF FF FF
 (000.009095)  can1  0CFE6E0B   [8]  00 00 00 00 00 00 00 00
 (000.000000)  can1  18F00131   [8]  00 00 00 00 00 00 00 00
 (000.000815)  can0  0CFFC600   [8]  32 00 01 FF FF FF FF FF
 (000.000337)  can1  18F0010B   [8]  00 00 00 00 00 00 00 00
 (000.000001)  can1  18FEF117   [8]  00 00 00 00 00 00 00 00
 (000.000873)  can0  0CF00400   [8]  0E 7D 7D 00 00 00 0F 7D
 (000.000325)  can1  18FEF128   [8]  00 00 00 00 00 00 00 00
 (000.000000)  can1  18FEF121   [8]  00 00 00 00 00 00 00 00
 (000.001112)  can1  18FEF131   [8]  00 00 00 00 00 00 00 00
 (000.000001)  can1  18E00017   [8]  00 00 00 00 00 00 00 00
 (000.001228)  can1  18E00019   [8]  00 00 00 00 00 00 00 00
 (000.000000)  can1  18E00021   [8]  00 00 00 00 00 00 00 00
 (000.001157)  can1  18E00028   [8]  00 00 00 00 00 00 00 00
 (000.000001)  can1  18E00031   [8]  00 00 00 00 00 00 00 00
 (000.001158)  can1  18FEF017   [8]  00 00 00 00 00 00 00 00
 (000.000001)  can1  18FEF021   [8]  00 00 00 00 00 00 00 00
 (000.001129)  can1  18FEF028   [8]  00 00 00 00 00 00 00 00
 (000.000001)  can1  18FEF031   [8]  00 00 00 00 00 00 00 00
 (000.003020)  can0  0CFFC600   [8]  32 00 01 FF FF FF FF FF
 (000.005095)  can1  18EBFF0B   [8]  01 04 FF 2B 03 02 7F 73
 (000.003114)  can1  0CFE6E0B   [8]  00 00 00 00 00 00 00 00
 (000.001482)  can0  0CFFC600   [8]  32 00 01 FF FF FF FF FF
 (000.001257)  can0  0CF00400   [8]  0E 7D 7D 00 00 00 0F 7D
 (000.008767)  can0  0CFFC600   [8]  32 00 01 FF FF FF FF FF
 (000.003517)  can1  18FEF521   [8]  00 00 00 00 00 00 00 00
 (000.005029)  can1  0CFE6E0B   [8]  00 00 00 00 00 00 00 00
 (000.001422)  can0  0CFFC600   [8]  32 00 01 FF FF FF FF FF
 (000.001270)  can0  0CF00400   [8]  0E 7D 7D 00 00 00 0F 7D
 (000.004256)  can1  18F0010B   [8]  C0 FF F0 FF FF 5C FF FF
 (000.004593)  can0  0CFFC600   [8]  32 00 01 FF FF FF FF FF
 (000.004921)  can0  0CFD9200   [8]  F0 FF FF FF FF FF FF FF
 (000.000581)  can1  18FEBF0B   [8]  00 00 7D 7D 7D 7D FF FF
 (000.002940)  can1  0CFE6E0B   [8]  00 00 00 00 00 00 00 00
 (000.001466)  can0  0CFFC600   [8]  32 00 01 FF FF FF FF FF
 (000.001216)  can0  0CF00400   [8]  0E 7D 7D 00 00 00 0F 7D
 (000.004394)  can1  18EBFF0B   [8]  02 02 04 7F 73 02 04 7F
 (000.009537)  can0  0CFFC600   [8]  32 00 01 FF FF FF FF FF
 (000.003385)  can1  0CFE6E0B   [8]  00 00 00 00 00 00 00 00
 (000.006460)  can0  0CFFC600   [8]  32 00 01 FF FF FF FF FF
 (000.001141)  can0  0CF00400   [8]  0E 7D 7D 00 00 00 0F 7D
 (000.008931)  can0  0CFFC600   [8]  32 00 01 FF FF FF FF FF
 (000.004059)  can1  0CFE6E0B   [8]  00 00 00 00 00 00 00 00
 (000.000000)  can1  18F00131   [8]  00 00 00 00 00 00 00 00
 (000.001156)  can1  18F0010B   [8]  00 00 00 00 00 00 00 00
 (000.000000)  can1  18FEF117   [8]  00 00 00 00 00 00 00 00
 (000.001178)  can1  18FEF128   [8]  00 00 00 00 00 00 00 00
 (000.000000)  can1  18FEF121   [8]  00 00 00 00 00 00 00 00
 (000.001152)  can1  18FEF131   [8]  00 00 00 00 00 00 00 00
 (000.000001)  can1  18E00017   [8]  00 00 00 00 00 00 00 00
 (000.001155)  can1  18E00019   [8]  00 00 00 00 00 00 00 00
 (000.000000)  can1  18E00021   [8]  00 00 00 00 00 00 00 00
 (000.001172)  can1  18E00028   [8]  00 00 00 00 00 00 00 00
 (000.000000)  can1  18E00031   [8]  00 00 00 00 00 00 00 00
 (000.000272)  can0  0CFFC600   [8]  32 00 01 FF FF FF FF FF
 (000.000907)  can1  18FEF017   [8]  00 00 00 00 00 00 00 00
 (000.000000)  can1  18FEF021   [8]  00 00 00 00 00 00 00 00
 (000.000341)  can0  0CF00400   [8]  0E 7D 7D 00 00 00 0F 7D
 (000.000835)  can1  18FEF028   [8]  00 00 00 00 00 00 00 00
 (000.000000)  can1  18FEF031   [8]  00 00 00 00 00 00 00 00
 (000.007681)  can0  0CFFC600   [8]  32 00 01 FF FF FF FF FF
 (000.003486)  can1  0CFE6E0B   [8]  00 00 00 00 00 00 00 00
 (000.001515)  can0  18FEDF00   [8]  7D A0 28 7D 7D FF FF F0
 (000.004964)  can0  0CFFC600   [8]  32 00 01 FF FF FF FF FF
 (000.001204)  can0  0CF00400   [8]  0E 7D 7D 00 00 00 0F 7D
 (000.004242)  can0  18FEEE00   [8]  FE FF FF FF FF FF FF FF
 (000.004598)  can0  0CFFC600   [8]  32 00 01 FF FF FF FF FF
 (000.003528)  can1  0CFE6E0B   [8]  00 00 00 00 00 00 00 00
 (000.006442)  can0  0CFFC600   [8]  32 00 01 FF FF FF FF FF
 (000.001151)  can1  18F0010B   [8]  C0 FF F0 FF FF 5C FF FF
 (000.000066)  can0  0CF00400   [8]  0E 7D 7D 00 00 00 0F 7D
 (000.008458)  can1  18EEFF5E   [8]  00 00 00 00 00 00 00 00
 (000.000371)  can0  0CFFC600   [8]  32 00 01 FF FF FF FF FF
 (000.001077)  can1  18FEBF0B   [8]  00 00 7D 7D 7D 7D FF FF
 (000.002403)  can1  0CFE6E0B   [8]  00 00 00 00 00 00 00 00
 (000.006405)  can0  18FD7C00   [8]  F8 83 01 00 D3 1F 03 FF
 (000.000001)  can0  0CFFC600   [8]  32 00 01 FF FF FF FF FF
 (000.001319)  can0  0CF00400   [8]  0E 7D 7D 00 00 00 0F 7D
 (000.012316)  can1  0CFE6E0B   [8]  00 00 00 00 00 00 00 00
 (000.001669)  can0  0CFFC600   [8]  32 00 01 FF FF FF FF FF
 (000.009737)  can0  0CFFC600   [8]  32 00 01 FF FF FF FF FF
 (000.001239)  can0  0CF00400   [8]  0E 7D 7D 00 00 00 0F 7D
 (000.007970)  can1  0CFE6E0B   [8]  00 00 00 00 00 00 00 00
 (000.000001)  can1  18F00131   [8]  00 00 00 00 00 00 00 00
 (000.000949)  can0  0CFFC600   [8]  32 00 01 FF FF FF FF FF
 (000.000196)  can1  18F0010B   [8]  00 00 00 00 00 00 00 00
 (000.000000)  can1  18FEF117   [8]  00 00 00 00 00 00 00 00
 (000.001194)  can1  18FEF128   [8]  00 00 00 00 00 00 00 00
 (000.000000)  can1  18FEF121   [8]  00 00 00 00 00 00 00 00
 (000.001139)  can1  18FEF131   [8]  00 00 00 00 00 00 00 00
 (000.000000)  can1  18E00017   [8]  00 00 00 00 00 00 00 00
 (000.001191)  can1  18E00019   [8]  00 00 00 00 00 00 00 00
 (000.000000)  can1  18E00021   [8]  00 00 00 00 00 00 00 00
 (000.001190)  can1  18E00028   [8]  00 00 00 00 00 00 00 00
 (000.000000)  can1  18E00031   [8]  00 00 00 00 00 00 00 00
 (000.001119)  can1  18FEF017   [8]  00 00 00 00 00 00 00 00
 (000.000001)  can1  18FEF021   [8]  00 00 00 00 00 00 00 00
 (000.001179)  can1  18FEF028   [8]  00 00 00 00 00 00 00 00
 (000.000000)  can1  18FEF031   [8]  00 00 00 00 00 00 00 00
 (000.002749)  can0  0CFFC600   [8]  32 00 01 FF FF FF FF FF
 (000.001212)  can0  0CF00400   [8]  0E 7D 7D 00 00 00 0F 7D
 (000.000000)  can0  18D42580   [8]  06 05 95 28 83 E6 BA 8C
 (000.007204)  can1  0CFE6E0B   [8]  00 00 00 00 00 00 00 00
 (000.001587)  can0  0CFFC600   [8]  32 00 01 FF FF FF FF FF
 (000.010640)  can0  0CFFC600   [8]  32 00 01 FF FF FF FF FF
 (000.000520)  can0  0CF00400   [8]  0E 7D 7D 00 00 00 0F 7D
 (000.007283)  can1  0CFE6E0B   [8]  00 00 00 00 00 00 00 00
 (000.004298)  can0  0CFFC600   [8]  32 00 01 FF FF FF FF FF
 (000.003849)  can1  18F0010B   [8]  C0 FF F0 FF FF 5C FF FF
 (000.003340)  can0  0CFFC600   [8]  32 00 01 FF FF FF FF FF
 (000.001183)  can0  0CF00400   [8]  0E 7D 7D 00 00 00 0F 7D
 (000.005525)  can1  18FEBF0B   [8]  00 00 7D 7D 7D 7D FF FF
 (000.001770)  can1  0CFE6E0B   [8]  00 00 00 00 00 00 00 00
 (000.001566)  can0  0CFFC600   [8]  32 00 01 FF FF FF FF FF
 (000.004991)  can0  18FEF500   [8]  FE FF FF E0 34 FF FF FF
 (000.004883)  can0  0CFFC600   [8]  32 00 01 FF FF FF FF FF
 (000.001207)  can0  0CF00400   [8]  0E 7D 7D 00 00 00 0F 7D
 (000.007352)  can1  0CFE6E0B   [8]  00 00 00 00 00 00 00 00
 (000.006571)  can0  0CFFC600   [8]  32 00 01 FF FF FF FF FF
 (000.009885)  can0  0CFFC600   [8]  32 00 01 FF FF FF FF FF
 (000.001213)  can0  0CF00400   [8]  0E 7D 7D 00 00 00 0F 7D
 (000.002934)  can1  0CFE6E0B   [8]  00 00 00 00 00 00 00 00
 (000.000000)  can1  18F00131   [8]  00 00 00 00 00 00 00 00
 (000.001200)  can1  18F0010B   [8]  00 00 00 00 00 00 00 00
 (000.000000)  can1  18FEF117   [8]  00 00 00 00 00 00 00 00
 (000.001190)  can1  18FEF128   [8]  00 00 00 00 00 00 00 00
 (000.000000)  can1  18FEF121   [8]  00 00 00 00 00 00 00 00
 (000.001136)  can1  18FEF131   [8]  00 00 00 00 00 00 00 00
 (000.000000)  can1  18E00017   [8]  00 00 00 00 00 00 00 00
 (000.001164)  can1  18E00019   [8]  00 00 00 00 00 00 00 00
 (000.000000)  can1  18E00021   [8]  00 00 00 00 00 00 00 00
 (000.001176)  can1  18E00028   [8]  00 00 00 00 00 00 00 00
 (000.000000)  can1  18E00031   [8]  00 00 00 00 00 00 00 00
 (000.000421)  can0  0CFFC600   [8]  32 00 01 FF FF FF FF FF
 (000.000750)  can1  18FEF017   [8]  00 00 00 00 00 00 00 00
 (000.000000)  can1  18FEF021   [8]  00 00 00 00 00 00 00 00
 (000.001193)  can1  18FEF028   [8]  00 00 00 00 00 00 00 00
 (000.000000)  can1  18FEF031   [8]  00 00 00 00 00 00 00 00
 (000.007594)  can0  0CFFC600   [8]  32 00 01 FF FF FF FF FF
 (000.001248)  can0  0CF00400   [8]  0E 7D 7D 00 00 00 0F 7D
 (000.002335)  can1  0CFE6E0B   [8]  00 00 00 00 00 00 00 00
 (000.002034)  can0  0CFD9200   [8]  F0 FF FF FF FF FF FF FF
 (000.004487)  can0  0CFFC600   [8]  32 00 01 FF FF FF FF FF
 (000.009928)  can0  0CFFC600   [8]  32 00 01 FF FF FF FF FF
 (000.001203)  can0  0CF00400   [8]  0E 7D 7D 00 00 00 0F 7D
 (000.002410)  can1  0CFE6E0B   [8]  00 00 00 00 00 00 00 00
 (000.006479)  can0  0CFFC600   [8]  32 00 01 FF FF FF FF FF
 (000.002120)  can1  18F0010B   [8]  C0 FF F0 FF FF 5C FF FF
 (000.007795)  can0  0CFFC600   [8]  32 00 01 FF FF FF FF FF
 (000.001411)  can0  0CF00400   [8]  0E 7D 7D 00 00 00 0F 7D
 (000.000916)  can1  18FEBF0B   [8]  00 00 7D 7D 7D 7D FF FF
 (000.001215)  can1  0CFE6E0B   [8]  00 00 00 00 00 00 00 00
 (000.006498)  can0  0CFFC600   [8]  32 00 01 FF FF FF FF FF
 (000.009910)  can0  0CFFC600   [8]  32 00 01 FF FF FF FF FF
 (000.001209)  can0  0CF00400   [8]  0E 7D 7D 00 00 00 0F 7D
 (000.002386)  can1  0CFE6E0B   [8]  00 00 00 00 00 00 00 00
 (000.011688)  can0  0CFFC600   [8]  32 00 01 FF FF FF FF FF
 (000.004759)  can0  18FEDF00   [8]  7D A0 28 7D 7D FF FF F0
 (000.004159)  can1  0CFE6E0B   [8]  00 00 00 00 00 00 00 00
 (000.000000)  can1  18F00131   [8]  00 00 00 00 00 00 00 00
 (000.000861)  can0  0CFFC600   [8]  32 00 01 FF FF FF FF FF
 (000.000305)  can1  18F0010B   [8]  00 00 00 00 00 00 00 00
 (000.000000)  can1  18FEF117   [8]  00 00 00 00 00 00 00 00
 (000.000922)  can0  0CF00400   [8]  0E 7D 7D 00 00 00 0F 7D
 (000.000280)  can1  18FEF128   [8]  00 00 00 00 00 00 00 00
 (000.000001)  can1  18FEF121   [8]  00 00 00 00 00 00 00 00
 (000.001169)  can1  18FEF131   [8]  00 00 00 00 00 00 00 00
 (000.000000)  can1  18E00017   [8]  00 00 00 00 00 00 00 00
 (000.001154)  can1  18E00019   [8]  00 00 00 00 00 00 00 00
 (000.000001)  can1  18E00021   [8]  00 00 00 00 00 00 00 00
 (000.001171)  can1  18E00028   [8]  00 00 00 00 00 00 00 00
 (000.000000)  can1  18E00031   [8]  00 00 00 00 00 00 00 00
 (000.001165)  can1  18FEF017   [8]  00 00 00 00 00 00 00 00
 (000.000000)  can1  18FEF021   [8]  00 00 00 00 00 00 00 00
 (000.001159)  can1  18FEF028   [8]  00 00 00 00 00 00 00 00
 (000.000001)  can1  18FEF031   [8]  00 00 00 00 00 00 00 00
 (000.002916)  can0  0CFFC600   [8]  32 00 01 FF FF FF FF FF
 (000.004392)  can1  18EEFF5F   [8]  00 00 00 00 00 00 00 00
 (000.003883)  can1  0CFE6E0B   [8]  00 00 00 00 00 00 00 00
 (000.001468)  can0  0CFFC600   [8]  32 00 01 FF FF FF FF FF
 (000.001335)  can0  0CF00400   [8]  0E 7D 7D 00 00 00 0F 7D
 (000.008708)  can0  0CFFC600   [8]  32 00 01 FF FF FF FF FF
 (000.004971)  can0  18FEF600   [8]  FF FE FE FF FF FF FF FF
 (000.003510)  can1  0CFE6E0B   [8]  00 00 00 00 00 00 00 00
 (000.001491)  can0  0CFFC600   [8]  32 00 01 FF FF FF FF FF
 (000.001228)  can0  0CF00400   [8]  0E 7D 7D 00 00 00 0F 7D
 (000.006531)  can1  18F0010B   [8]  C0 FF F0 FF FF 5C FF FF
 (000.002305)  can0  0CFFC600   [8]  32 00 01 FF FF FF FF FF
 (000.007813)  can1  18FEBF0B   [8]  00 00 7D 7D 7D 7D FF FF
 (000.000000)  can1  0CFE6E0B   [8]  00 00 00 00 00 00 00 00
 (000.002150)  can0  0CFFC600   [8]  32 00 01 FF FF FF FF FF
 (000.001232)  can0  0CF00400   [8]  0E 7D 7D 00 00 00 0F 7D
 (000.008779)  can0  0CFFC600   [8]  32 00 01 FF FF FF FF FF
 (000.008480)  can1  0CFE6E0B   [8]  00 00 00 00 00 00 00 00
 (000.001447)  can0  0CFFC600   [8]  32 00 01 FF FF FF FF FF
 (000.001211)  can0  0CF00400   [8]  0E 7D 7D 00 00 00 0F 7D
 (000.013941)  can0  0CFFC600   [8]  32 00 01 FF FF FF FF FF
 (000.004034)  can1  0CFE6E0B   [8]  00 00 00 00 00 00 00 00
 (000.000000)  can1  18F00131   [8]  00 00 00 00 00 00 00 00
 (000.001192)  can1  18F0010B   [8]  00 00 00 00 00 00 00 00
 (000.000000)  can1  18FEF117   [8]  00 00 00 00 00 00 00 00
 (000.001151)  can1  18FEF128   [8]  00 00 00 00 00 00 00 00
 (000.000001)  can1  18FEF121   [8]  00 00 00 00 00 00 00 00
 (000.001152)  can1  18FEF131   [8]  00 00 00 00 00 00 00 00
 (000.000000)  can1  18E00017   [8]  00 00 00 00 00 00 00 00
 (000.001174)  can1  18E00019   [8]  00 00 00 00 00 00 00 00
 (000.000001)  can1  18E00021   [8]  00 00 00 00 00 00 00 00
 (000.001180)  can1  18E00028   [8]  00 00 00 00 00 00 00 00
 (000.000000)  can1  18E00031   [8]  00 00 00 00 00 00 00 00
 (000.000242)  can0  0CFFC600   [8]  32 00 01 FF FF FF FF FF
 (000.000931)  can1  18FEF017   [8]  00 00 00 00 00 00 00 00
 (000.000000)  can1  18FEF021   [8]  00 00 00 00 00 00 00 00
 (000.000402)  can0  0CF00400   [8]  0E 7D 7D 00 00 00 0F 7D
 (000.000802)  can1  18FEF028   [8]  00 00 00 00 00 00 00 00
 (000.000000)  can1  18FEF031   [8]  00 00 00 00 00 00 00 00
 (000.007740)  can0  0CFFC600   [8]  32 00 01 FF FF FF FF FF
 (000.003461)  can1  0CFE6E0B   [8]  00 00 00 00 00 00 00 00
 (000.006428)  can0  0CFFC600   [8]  32 00 01 FF FF FF FF FF
 (000.001208)  can0  0CF00400   [8]  0E 7D 7D 00 00 00 0F 7D
 (000.008866)  can0  0CFFC600   [8]  32 00 01 FF FF FF FF FF
 (000.003443)  can1  0CFE6E0B   [8]  00 00 00 00 00 00 00 00
 (000.006534)  can0  0CFFC600   [8]  32 00 01 FF FF FF FF FF
 (000.001136)  can0  0CF00400   [8]  0E 7D 7D 00 00 00 0F 7D
 (000.002167)  can1  18F0010B   [8]  C0 FF F0 FF FF 5C FF FF
 (000.006721)  can0  0CFFC600   [8]  32 00 01 FF FF FF FF FF
 (000.003419)  can1  18FEBF0B   [8]  00 00 7D 7D 7D 7D FF FF
 (000.000001)  can1  0CFE6E0B   [8]  00 00 00 00 00 00 00 00
 (000.006531)  can0  0CFFC600   [8]  32 00 01 FF FF FF FF FF
 (000.001217)  can0  0CF00400   [8]  0E 7D 7D 00 00 00 0F 7D
 (000.008883)  can0  0CFFC600   [8]  32 00 01 FF FF FF FF FF
 (000.003434)  can1  0CFE6E0B   [8]  00 00 00 00 00 00 00 00
 (000.001498)  can0  0CFD9200   [8]  F0 FF FF FF FF FF FF FF
 (000.004961)  can0  0CFFC600   [8]  32 00 01 FF FF FF FF FF
 (000.001188)  can0  0CF00400   [8]  0E 7D 7D 00 00 00 0F 7D
 (000.012979)  can1  0CFE6E0B   [8]  00 00 00 00 00 00 00 00
 (000.000000)  can1  18F00131   [8]  00 00 00 00 00 00 00 00
 (000.001102)  can0  0CFFC600   [8]  32 00 01 FF FF FF FF FF
 (000.000017)  can1  18F0010B   [8]  00 00 00 00 00 00 00 00
 (000.000000)  can1  18FEF117   [8]  00 00 00 00 00 00 00 00
 (000.001183)  can1  18FEF128   [8]  00 00 00 00 00 00 00 00
 (000.000000)  can1  18FEF121   [8]  00 00 00 00 00 00 00 00
 (000.001159)  can1  18FEF131   [8]  00 00 00 00 00 00 00 00
 (000.000000)  can1  18E00017   [8]  00 00 00 00 00 00 00 00
 (000.001186)  can1  18E00019   [8]  00 00 00 00 00 00 00 00
